<Qucs Dataset 0.0.18>
<indep time 6>
  +0.00000000000e+00
  +2.00000000000e-05
  +4.00000000000e-05
  +6.00000000000e-05
  +8.00000000000e-05
  +1.00000000000e-04
</indep>
<dep Pr1.Vt time>
  +0.00000000000e+00
  +0.00000000000e+00
  +0.00000000000e+00
  +0.00000000000e+00
  +0.00000000000e+00
  +0.00000000000e+00
</dep>
<dep V1.It time>
  +0.00000000000e+00
  +0.00000000000e+00
  +0.00000000000e+00
  +0.00000000000e+00
  +0.00000000000e+00
  +0.00000000000e+00
</dep>
<dep _net2.Vt time>
  +0.00000000000e+00
  +0.00000000000e+00
  +0.00000000000e+00
  +0.00000000000e+00
  +0.00000000000e+00
  +0.00000000000e+00
</dep>
<dep _net5.Vt time>
  +0.00000000000e+00
  +0.00000000000e+00
  +0.00000000000e+00
  +0.00000000000e+00
  +0.00000000000e+00
  +0.00000000000e+00
</dep>
<dep _net4.Vt time>
  +0.00000000000e+00
  +0.00000000000e+00
  +0.00000000000e+00
  +0.00000000000e+00
  +0.00000000000e+00
  +0.00000000000e+00
</dep>
<dep _net1.Vt time>
  +0.00000000000e+00
  +0.00000000000e+00
  +0.00000000000e+00
  +0.00000000000e+00
  +0.00000000000e+00
  +0.00000000000e+00
</dep>
<dep _net3.Vt time>
  +0.00000000000e+00
  +0.00000000000e+00
  +0.00000000000e+00
  +0.00000000000e+00
  +0.00000000000e+00
  +0.00000000000e+00
</dep>
<dep _net0.Vt time>
  +5.00000000000e+00
  +5.00000000000e+00
  +5.00000000000e+00
  +5.00000000000e+00
  +5.00000000000e+00
  +5.00000000000e+00
</dep>
<indep Pr1.V 1>
  +0.00000000000e+00
</indep>
<indep V1.I 1>
  +0.00000000000e+00
</indep>
<indep _net2.V 1>
  +0.00000000000e+00
</indep>
<indep _net5.V 1>
  +0.00000000000e+00
</indep>
<indep _net4.V 1>
  +0.00000000000e+00
</indep>
<indep _net1.V 1>
  +0.00000000000e+00
</indep>
<indep _net3.V 1>
  +0.00000000000e+00
</indep>
<indep _net0.V 1>
  +5.00000000000e+00
</indep>
